
T4DA8 000:406 SEGGER J-Link V4.98e Log File (0028ms, 0359ms total)
T4DA8 000:406 DLL Compiled: May  5 2015 11:00:52 (0028ms, 0359ms total)
T4DA8 000:406 Logging started @ 2018-12-05 15:48 (0028ms, 0359ms total)
T4DA8 000:435 JLINK_SetWarnOutHandler(...) (0000ms, 0360ms total)
T4DA8 000:435 JLINK_OpenEx(...)
Firmware: J-Link ARM V8 compiled Nov 28 2014 13:44:46
Hardware: V8.00
Feature(s): RDI,FlashDL,FlashBP,JFlash,GDBFULL  returns O.K. (0266ms, 0626ms total)
T4DA8 000:701 JLINK_SetErrorOutHandler(...) (0000ms, 0626ms total)
T4DA8 000:701 JLINK_ExecCommand("ProjectFile = "F:\01_水肥\20171112控制器接收清零 - 水肥\20181107极码平台有线SDK水肥\Project\JLinkSettings.ini"", ...)Device "UNSPECIFIED" selected.  returns 0x00 (0005ms, 0631ms total)
T4DA8 000:712 JLINK_ExecCommand("Device = STM32F103VE", ...)Device "STM32F103VE" selected.  returns 0x00 (0010ms, 0641ms total)
T4DA8 000:722 JLINK_ExecCommand("DisableConnectionTimeout", ...)  returns 0x01 (0000ms, 0641ms total)
T4DA8 000:722 JLINK_GetHardwareVersion()  returns 0x13880 (0000ms, 0641ms total)
T4DA8 000:722 JLINK_GetDLLVersion()  returns 49805 (0000ms, 0641ms total)
T4DA8 000:722 JLINK_GetFirmwareString(...) (0000ms, 0641ms total)
T4DA8 000:745 JLINK_GetDLLVersion()  returns 49805 (0000ms, 0641ms total)
T4DA8 000:745 JLINK_GetCompileDateTime() (0000ms, 0641ms total)
T4DA8 000:751 JLINK_GetFirmwareString(...) (0000ms, 0641ms total)
T4DA8 000:755 JLINK_GetHardwareVersion()  returns 0x13880 (0000ms, 0641ms total)
T4DA8 000:772 JLINK_TIF_Select(JLINKARM_TIF_SWD)  returns 0x00 (0000ms, 0641ms total)
T4DA8 000:772 JLINK_SetSpeed(5000) (0000ms, 0641ms total)
T4DA8 000:772 JLINK_GetId() >0x108 TIF>Found SWD-DP with ID 0x1BA01477 >0x0D TIF> >0x28 TIF> >0x0D TIF> >0x28 TIF> >0x0D TIF> >0x21 TIF> >0x0D TIF> >0x28 TIF> >0x0D TIF> >0x28 TIF> >0x0D TIF> >0x28 TIF> >0x0D TIF> >0x21 TIF> >0x0D TIF> >0x21 TIF> >0x0D TIF> >0x28 TIF> >0x0D TIF> >0x21 TIF> >0x0D TIF> >0x21 TIF> >0x0D TIF> >0x28 TIF> >0x0D TIF> >0x28 TIF> >0x108 TIF>Found SWD-DP with ID 0x1BA01477 >0x0D TIF> >0x21 TIF> >0x0D TIF> >0x28 TIF> >0x0D TIF> >0x28 TIF> >0x0D TIF> >0x21 TIF> >0x0D TIF> >0x28 TIF>
 >0x0D TIF> >0x21 TIF> >0x0D TIF> >0x21 TIF> >0x0D TIF> >0x21 TIF> >0x0D TIF> >0x21 TIF> >0x0D TIF> >0x28 TIF> >0x0D TIF> >0x28 TIF> >0x0D TIF> >0x21 TIF> >0x0D TIF> >0x28 TIF> >0x0D TIF> >0x28 TIF> >0x0D TIF> >0x28 TIF> >0x0D TIF> >0x21 TIF> >0x0D TIF> >0x21 TIF> >0x0D TIF> >0x28 TIF> >0x0D TIF> >0x21 TIF> >0x0D TIF> >0x21 TIF>Found Cortex-M3 r1p1, Little endian. -- CPU_WriteMem(4 bytes @ 0xE0002000) -- CPU_ReadMem(4 bytes @ 0xE000EDF0) -- CPU_WriteMem(4 bytes @ 0xE000EDF0)
 -- CPU_ReadMem(4 bytes @ 0xE0002000)FPUnit: 6 code (BP) slots and 2 literal slots -- CPU_ReadMem(4 bytes @ 0xE000EDFC) -- CPU_WriteMem(4 bytes @ 0xE000EDFC) -- CPU_ReadMem(4 bytes @ 0xE0001000) -- CPU_WriteMem(4 bytes @ 0xE0001000) -- CPU_ReadMem(4 bytes @ 0xE000ED88) -- CPU_WriteMem(4 bytes @ 0xE000ED88) -- CPU_ReadMem(4 bytes @ 0xE000ED88) -- CPU_WriteMem(4 bytes @ 0xE000ED88)CoreSight components:ROMTbl 0 @ E00FF000 -- CPU_ReadMem(16 bytes @ 0xE00FF000) -- CPU_ReadMem(16 bytes @ 0xE000EFF0)
 -- CPU_ReadMem(16 bytes @ 0xE000EFE0)ROMTbl 0 [0]: FFF0F000, CID: B105E00D, PID: 001BB000 SCS -- CPU_ReadMem(16 bytes @ 0xE0001FF0) -- CPU_ReadMem(16 bytes @ 0xE0001FE0)ROMTbl 0 [1]: FFF02000, CID: B105E00D, PID: 001BB002 DWT -- CPU_ReadMem(16 bytes @ 0xE0002FF0) -- CPU_ReadMem(16 bytes @ 0xE0002FE0)ROMTbl 0 [2]: FFF03000, CID: B105E00D, PID: 000BB003 FPB -- CPU_ReadMem(16 bytes @ 0xE0000FF0) -- CPU_ReadMem(16 bytes @ 0xE0000FE0)ROMTbl 0 [3]: FFF01000, CID: B105E00D, PID: 001BB001 ITM
 -- CPU_ReadMem(16 bytes @ 0xE00FF010) -- CPU_ReadMem(16 bytes @ 0xE0040FF0) -- CPU_ReadMem(16 bytes @ 0xE0040FE0)ROMTbl 0 [4]: FFF41000, CID: B105900D, PID: 001BB923 TPIU-Lite -- CPU_ReadMem(16 bytes @ 0xE0041FF0) -- CPU_ReadMem(16 bytes @ 0xE0041FE0)ROMTbl 0 [5]: FFF42000, CID: B105900D, PID: 101BB924 ETM-M3 >0x0D TIF> >0x21 TIF>  returns 0x1BA01477 (0073ms, 0714ms total)
T4DA8 000:845 JLINK_GetDLLVersion()  returns 49805 (0000ms, 0714ms total)
T4DA8 000:845 JLINK_CORE_GetFound()  returns 0x30000FF (0000ms, 0714ms total)
T4DA8 000:845 JLINK_GetDebugInfo(0x100) -- Value=0xE00FF003  returns 0x00 (0000ms, 0714ms total)
T4DA8 000:847 JLINK_ReadMem (0xE00FF000, 0x0020 Bytes, ...) -- CPU is running -- CPU_ReadMem(32 bytes @ 0xE00FF000) - Data: 03 F0 F0 FF 03 20 F0 FF 03 30 F0 FF 03 10 F0 FF ...  returns 0x00 (0001ms, 0715ms total)
T4DA8 000:848 JLINK_ReadMem (0xE000EFF0, 0x0010 Bytes, ...) -- CPU is running -- CPU_ReadMem(16 bytes @ 0xE000EFF0) - Data: 0D 00 00 00 E0 00 00 00 05 00 00 00 B1 00 00 00  returns 0x00 (0000ms, 0715ms total)
T4DA8 000:848 JLINK_ReadMem (0xE000EFD0, 0x0020 Bytes, ...) -- CPU is running -- CPU_ReadMem(32 bytes @ 0xE000EFD0) - Data: 04 00 00 00 00 00 00 00 00 00 00 00 00 00 00 00 ...  returns 0x00 (0001ms, 0716ms total)
T4DA8 000:849 JLINK_ReadMem (0xE0001FF0, 0x0010 Bytes, ...) -- CPU is running -- CPU_ReadMem(16 bytes @ 0xE0001FF0) - Data: 0D 00 00 00 E0 00 00 00 05 00 00 00 B1 00 00 00  returns 0x00 (0000ms, 0716ms total)
T4DA8 000:849 JLINK_ReadMem (0xE0001FD0, 0x0020 Bytes, ...) -- CPU is running -- CPU_ReadMem(32 bytes @ 0xE0001FD0) - Data: 04 00 00 00 00 00 00 00 00 00 00 00 00 00 00 00 ...  returns 0x00 (0001ms, 0717ms total)
T4DA8 000:850 JLINK_ReadMem (0xE0002FF0, 0x0010 Bytes, ...) -- CPU is running -- CPU_ReadMem(16 bytes @ 0xE0002FF0) - Data: 0D 00 00 00 E0 00 00 00 05 00 00 00 B1 00 00 00  returns 0x00 (0000ms, 0717ms total)
T4DA8 000:850 JLINK_ReadMem (0xE0002FD0, 0x0020 Bytes, ...) -- CPU is running -- CPU_ReadMem(32 bytes @ 0xE0002FD0) - Data: 04 00 00 00 00 00 00 00 00 00 00 00 00 00 00 00 ...  returns 0x00 (0001ms, 0718ms total)
T4DA8 000:851 JLINK_ReadMem (0xE0000FF0, 0x0010 Bytes, ...) -- CPU is running -- CPU_ReadMem(16 bytes @ 0xE0000FF0) - Data: 0D 00 00 00 E0 00 00 00 05 00 00 00 B1 00 00 00  returns 0x00 (0001ms, 0719ms total)
T4DA8 000:852 JLINK_ReadMem (0xE0000FD0, 0x0020 Bytes, ...) -- CPU is running -- CPU_ReadMem(32 bytes @ 0xE0000FD0) - Data: 04 00 00 00 00 00 00 00 00 00 00 00 00 00 00 00 ...  returns 0x00 (0001ms, 0720ms total)
T4DA8 000:853 JLINK_ReadMem (0xE0040FF0, 0x0010 Bytes, ...) -- CPU is running -- CPU_ReadMem(16 bytes @ 0xE0040FF0) - Data: 0D 00 00 00 90 00 00 00 05 00 00 00 B1 00 00 00  returns 0x00 (0000ms, 0720ms total)
T4DA8 000:853 JLINK_ReadMem (0xE0040FD0, 0x0020 Bytes, ...) -- CPU is running -- CPU_ReadMem(32 bytes @ 0xE0040FD0) - Data: 04 00 00 00 00 00 00 00 00 00 00 00 00 00 00 00 ...  returns 0x00 (0001ms, 0721ms total)
T4DA8 000:854 JLINK_ReadMem (0xE0041FF0, 0x0010 Bytes, ...) -- CPU is running -- CPU_ReadMem(16 bytes @ 0xE0041FF0) - Data: 0D 00 00 00 90 00 00 00 05 00 00 00 B1 00 00 00  returns 0x00 (0000ms, 0721ms total)
T4DA8 000:854 JLINK_ReadMem (0xE0041FD0, 0x0020 Bytes, ...) -- CPU is running -- CPU_ReadMem(32 bytes @ 0xE0041FD0) - Data: 04 00 00 00 00 00 00 00 00 00 00 00 00 00 00 00 ...  returns 0x00 (0001ms, 0722ms total)
T4DA8 000:855 JLINK_ReadMemU32(0xE000ED00, 0x0001 Items, ...) -- CPU is running -- CPU_ReadMem(4 bytes @ 0xE000ED00) - Data: 31 C2 1F 41  returns 0x01 (0000ms, 0722ms total)
T4DA8 000:855 JLINK_SetResetType(JLINKARM_RESET_TYPE_NORMAL)  returns JLINKARM_RESET_TYPE_NORMAL (0000ms, 0722ms total)
T4DA8 000:855 JLINK_Reset() -- CPU is running -- CPU_WriteMem(4 bytes @ 0xE000EDF0) -- CPU is running -- CPU_WriteMem(4 bytes @ 0xE000EDFC) >0x35 TIF> -- CPU is running -- CPU_WriteMem(4 bytes @ 0xE000ED0C) -- CPU is running -- CPU_ReadMem(4 bytes @ 0xE000EDF0) -- CPU is running -- CPU_ReadMem(4 bytes @ 0xE000EDF0) -- CPU is running -- CPU_WriteMem(4 bytes @ 0xE000EDF0) -- CPU is running -- CPU_WriteMem(4 bytes @ 0xE000EDFC) -- CPU is running -- CPU_ReadMem(4 bytes @ 0xE000EDF0)
 -- CPU_WriteMem(4 bytes @ 0xE0002000) -- CPU_ReadMem(4 bytes @ 0xE000EDFC) -- CPU_ReadMem(4 bytes @ 0xE0001000) (0017ms, 0739ms total)
T4DA8 000:872 JLINK_Halt()  returns 0x00 (0000ms, 0739ms total)
T4DA8 000:872 JLINK_IsHalted()  returns TRUE (0000ms, 0739ms total)
T4DA8 000:872 JLINK_ReadMemU32(0xE000EDF0, 0x0001 Items, ...) -- CPU_ReadMem(4 bytes @ 0xE000EDF0) - Data: 03 00 03 00  returns 0x01 (0001ms, 0740ms total)
T4DA8 000:873 JLINK_WriteU32(0xE000EDF0, 0xA05F0003) -- CPU_WriteMem(4 bytes @ 0xE000EDF0)  returns 0x00 (0001ms, 0741ms total)
T4DA8 000:874 JLINK_WriteU32(0xE000EDFC, 0x01000000) -- CPU_WriteMem(4 bytes @ 0xE000EDFC)  returns 0x00 (0000ms, 0741ms total)
T4DA8 000:886 JLINK_GetHWStatus(...)  returns 0x00 (0000ms, 0741ms total)
T4DA8 000:902 JLINK_GetNumBPUnits(Type = 0xFFFFFF00)  returns 0x06 (0000ms, 0741ms total)
T4DA8 000:902 JLINK_GetNumBPUnits(Type = 0xF0)  returns 0x2000 (0000ms, 0741ms total)
T4DA8 000:902 JLINK_GetNumWPUnits()  returns 0x04 (0000ms, 0741ms total)
T4DA8 000:910 JLINK_GetSpeed()  returns 0xFA0 (0000ms, 0741ms total)
T4DA8 000:919 JLINK_ReadMemU32(0xE000E004, 0x0001 Items, ...) -- CPU_ReadMem(4 bytes @ 0xE000E004) - Data: 01 00 00 00  returns 0x01 (0000ms, 0741ms total)
T4DA8 000:919 JLINK_ReadMemU32(0xE000E004, 0x0001 Items, ...) -- CPU_ReadMem(4 bytes @ 0xE000E004) - Data: 01 00 00 00  returns 0x01 (0000ms, 0741ms total)
T4DA8 000:919 JLINK_WriteMem(0xE0001000, 0x001C Bytes, ...) - Data: 01 00 00 00 00 00 00 00 00 00 00 00 00 00 00 00 ... -- CPU_WriteMem(28 bytes @ 0xE0001000)  returns 0x1C (0001ms, 0742ms total)
T4DA8 000:920 JLINK_ReadMem (0xE0001000, 0x001C Bytes, ...) -- CPU_ReadMem(28 bytes @ 0xE0001000) - Data: 01 00 00 40 00 00 00 00 00 00 00 00 00 00 00 00 ...  returns 0x00 (0001ms, 0743ms total)
T4DA8 000:921 JLINK_Halt()  returns 0x00 (0000ms, 0743ms total)
T4DA8 000:921 JLINK_IsHalted()  returns TRUE (0000ms, 0743ms total)
T4DA8 000:957 JLINK_WriteMem(0x20000000, 0x0164 Bytes, ...) - Data: 00 BE 0A E0 0D 78 2D 06 68 40 08 24 40 00 00 D3 ... -- CPU_WriteMem(356 bytes @ 0x20000000)  returns 0x164 (0003ms, 0746ms total)
T4DA8 000:960 JLINK_WriteReg(R0, 0x08000000)  returns 0x00 (0000ms, 0746ms total)
T4DA8 000:960 JLINK_WriteReg(R1, 0x00B71B00)  returns 0x00 (0000ms, 0746ms total)
T4DA8 000:960 JLINK_WriteReg(R2, 0x00000001)  returns 0x00 (0000ms, 0746ms total)
T4DA8 000:960 JLINK_WriteReg(R3, 0x00000000)  returns 0x00 (0000ms, 0746ms total)
T4DA8 000:960 JLINK_WriteReg(R4, 0x00000000)  returns 0x00 (0000ms, 0746ms total)
T4DA8 000:960 JLINK_WriteReg(R5, 0x00000000)  returns 0x00 (0000ms, 0746ms total)
T4DA8 000:960 JLINK_WriteReg(R6, 0x00000000)  returns 0x00 (0000ms, 0746ms total)
T4DA8 000:960 JLINK_WriteReg(R7, 0x00000000)  returns 0x00 (0000ms, 0746ms total)
T4DA8 000:960 JLINK_WriteReg(R8, 0x00000000)  returns 0x00 (0000ms, 0746ms total)
T4DA8 000:960 JLINK_WriteReg(R9, 0x20000160)  returns 0x00 (0000ms, 0746ms total)
T4DA8 000:960 JLINK_WriteReg(R10, 0x00000000)  returns 0x00 (0000ms, 0746ms total)
T4DA8 000:960 JLINK_WriteReg(R11, 0x00000000)  returns 0x00 (0000ms, 0746ms total)
T4DA8 000:960 JLINK_WriteReg(R12, 0x00000000)  returns 0x00 (0000ms, 0746ms total)
T4DA8 000:960 JLINK_WriteReg(R13 (SP), 0x20000800)  returns 0x00 (0000ms, 0746ms total)
T4DA8 000:960 JLINK_WriteReg(R14, 0x20000001)  returns 0x00 (0000ms, 0746ms total)
T4DA8 000:960 JLINK_WriteReg(R15 (PC), 0x20000038)  returns 0x00 (0000ms, 0746ms total)
T4DA8 000:960 JLINK_WriteReg(XPSR, 0x01000000)  returns 0x00 (0000ms, 0746ms total)
T4DA8 000:960 JLINK_WriteReg(MSP, 0x20000800)  returns 0x00 (0000ms, 0746ms total)
T4DA8 000:960 JLINK_WriteReg(PSP, 0x20000800)  returns 0x00 (0000ms, 0746ms total)
T4DA8 000:960 JLINK_WriteReg(CFBP, 0x00000000)  returns 0x00 (0000ms, 0746ms total)
T4DA8 000:960 JLINK_SetBPEx(Addr = 0x20000000, Type = 0xFFFFFFF2) -- CPU_ReadMem(2 bytes @ 0x20000000)  returns 0x00000001 (0001ms, 0747ms total)
T4DA8 000:961 JLINK_Go() -- CPU_WriteMem(2 bytes @ 0x20000000) -- CPU_ReadMem(4 bytes @ 0xE0001000) -- CPU_WriteMem(4 bytes @ 0xE0002008) -- CPU_WriteMem(4 bytes @ 0xE000200C) -- CPU_WriteMem(4 bytes @ 0xE0002010) -- CPU_WriteMem(4 bytes @ 0xE0002014) -- CPU_WriteMem(4 bytes @ 0xE0002018) -- CPU_WriteMem(4 bytes @ 0xE000201C) -- CPU_WriteMem(4 bytes @ 0xE0001004) (0005ms, 0752ms total)
T4DA8 000:966 JLINK_IsHalted() -- CPU_ReadMem(2 bytes @ 0x20000000)  returns TRUE (0002ms, 0754ms total)
T4DA8 000:968 JLINK_ReadReg(R15 (PC))  returns 0x20000000 (0000ms, 0752ms total)
T4DA8 000:968 JLINK_ClrBPEx(BPHandle = 0x00000001)  returns 0x00 (0000ms, 0752ms total)
T4DA8 000:968 JLINK_ReadReg(R0)  returns 0x00000000 (0000ms, 0752ms total)
T4DA8 000:969 JLINK_WriteReg(R0, 0x08000000)  returns 0x00 (0000ms, 0752ms total)
T4DA8 000:969 JLINK_WriteReg(R1, 0x00B71B00)  returns 0x00 (0000ms, 0752ms total)
T4DA8 000:969 JLINK_WriteReg(R2, 0x00000001)  returns 0x00 (0000ms, 0752ms total)
T4DA8 000:969 JLINK_WriteReg(R3, 0x00000000)  returns 0x00 (0000ms, 0752ms total)
T4DA8 000:969 JLINK_WriteReg(R4, 0x00000000)  returns 0x00 (0000ms, 0752ms total)
T4DA8 000:969 JLINK_WriteReg(R5, 0x00000000)  returns 0x00 (0000ms, 0752ms total)
T4DA8 000:969 JLINK_WriteReg(R6, 0x00000000)  returns 0x00 (0000ms, 0752ms total)
T4DA8 000:969 JLINK_WriteReg(R7, 0x00000000)  returns 0x00 (0000ms, 0752ms total)
T4DA8 000:969 JLINK_WriteReg(R8, 0x00000000)  returns 0x00 (0000ms, 0752ms total)
T4DA8 000:969 JLINK_WriteReg(R9, 0x20000160)  returns 0x00 (0000ms, 0752ms total)
T4DA8 000:969 JLINK_WriteReg(R10, 0x00000000)  returns 0x00 (0000ms, 0752ms total)
T4DA8 000:969 JLINK_WriteReg(R11, 0x00000000)  returns 0x00 (0000ms, 0752ms total)
T4DA8 000:969 JLINK_WriteReg(R12, 0x00000000)  returns 0x00 (0000ms, 0752ms total)
T4DA8 000:969 JLINK_WriteReg(R13 (SP), 0x20000800)  returns 0x00 (0000ms, 0752ms total)
T4DA8 000:969 JLINK_WriteReg(R14, 0x20000001)  returns 0x00 (0000ms, 0752ms total)
T4DA8 000:969 JLINK_WriteReg(R15 (PC), 0x2000007C)  returns 0x00 (0000ms, 0752ms total)
T4DA8 000:969 JLINK_WriteReg(XPSR, 0x01000000)  returns 0x00 (0000ms, 0752ms total)
T4DA8 000:969 JLINK_WriteReg(MSP, 0x20000800)  returns 0x00 (0000ms, 0752ms total)
T4DA8 000:969 JLINK_WriteReg(PSP, 0x20000800)  returns 0x00 (0001ms, 0753ms total)
T4DA8 000:970 JLINK_WriteReg(CFBP, 0x00000000)  returns 0x00 (0000ms, 0753ms total)
T4DA8 000:970 JLINK_SetBPEx(Addr = 0x20000000, Type = 0xFFFFFFF2)  returns 0x00000002 (0000ms, 0753ms total)
T4DA8 000:970 JLINK_Go() -- CPU_ReadMem(4 bytes @ 0xE0001000) (0001ms, 0754ms total)
T4DA8 000:971 JLINK_IsHalted()  returns FALSE (0000ms, 0754ms total)
T4DA8 001:111 JLINK_IsHalted() -- CPU_ReadMem(2 bytes @ 0x20000000)  returns TRUE (0002ms, 0756ms total)
T4DA8 001:113 JLINK_ReadReg(R15 (PC))  returns 0x20000000 (0000ms, 0754ms total)
T4DA8 001:113 JLINK_ClrBPEx(BPHandle = 0x00000002)  returns 0x00 (0000ms, 0754ms total)
T4DA8 001:113 JLINK_ReadReg(R0)  returns 0x00000000 (0000ms, 0754ms total)
T4DA8 001:171 JLINK_WriteReg(R0, 0x00000001)  returns 0x00 (0000ms, 0754ms total)
T4DA8 001:171 JLINK_WriteReg(R1, 0x00B71B00)  returns 0x00 (0000ms, 0754ms total)
T4DA8 001:171 JLINK_WriteReg(R2, 0x00000001)  returns 0x00 (0000ms, 0754ms total)
T4DA8 001:171 JLINK_WriteReg(R3, 0x00000000)  returns 0x00 (0000ms, 0754ms total)
T4DA8 001:171 JLINK_WriteReg(R4, 0x00000000)  returns 0x00 (0000ms, 0754ms total)
T4DA8 001:171 JLINK_WriteReg(R5, 0x00000000)  returns 0x00 (0000ms, 0754ms total)
T4DA8 001:171 JLINK_WriteReg(R6, 0x00000000)  returns 0x00 (0000ms, 0754ms total)
T4DA8 001:171 JLINK_WriteReg(R7, 0x00000000)  returns 0x00 (0000ms, 0754ms total)
T4DA8 001:171 JLINK_WriteReg(R8, 0x00000000)  returns 0x00 (0000ms, 0754ms total)
T4DA8 001:171 JLINK_WriteReg(R9, 0x20000160)  returns 0x00 (0000ms, 0754ms total)
T4DA8 001:171 JLINK_WriteReg(R10, 0x00000000)  returns 0x00 (0000ms, 0754ms total)
T4DA8 001:171 JLINK_WriteReg(R11, 0x00000000)  returns 0x00 (0000ms, 0754ms total)
T4DA8 001:171 JLINK_WriteReg(R12, 0x00000000)  returns 0x00 (0000ms, 0754ms total)
T4DA8 001:171 JLINK_WriteReg(R13 (SP), 0x20000800)  returns 0x00 (0000ms, 0754ms total)
T4DA8 001:171 JLINK_WriteReg(R14, 0x20000001)  returns 0x00 (0000ms, 0754ms total)
T4DA8 001:171 JLINK_WriteReg(R15 (PC), 0x2000006A)  returns 0x00 (0000ms, 0754ms total)
T4DA8 001:171 JLINK_WriteReg(XPSR, 0x01000000)  returns 0x00 (0000ms, 0754ms total)
T4DA8 001:171 JLINK_WriteReg(MSP, 0x20000800)  returns 0x00 (0000ms, 0754ms total)
T4DA8 001:171 JLINK_WriteReg(PSP, 0x20000800)  returns 0x00 (0000ms, 0754ms total)
T4DA8 001:171 JLINK_WriteReg(CFBP, 0x00000000)  returns 0x00 (0000ms, 0754ms total)
T4DA8 001:171 JLINK_SetBPEx(Addr = 0x20000000, Type = 0xFFFFFFF2)  returns 0x00000003 (0000ms, 0754ms total)
T4DA8 001:171 JLINK_Go() -- CPU_ReadMem(4 bytes @ 0xE0001000) (0002ms, 0756ms total)
T4DA8 001:173 JLINK_IsHalted() -- CPU_ReadMem(2 bytes @ 0x20000000)  returns TRUE (0002ms, 0758ms total)
T4DA8 001:175 JLINK_ReadReg(R15 (PC))  returns 0x20000000 (0000ms, 0756ms total)
T4DA8 001:175 JLINK_ClrBPEx(BPHandle = 0x00000003)  returns 0x00 (0000ms, 0756ms total)
T4DA8 001:175 JLINK_ReadReg(R0)  returns 0x00000000 (0000ms, 0756ms total)
T4DA8 001:177 JLINK_WriteMem(0x20000000, 0x01B8 Bytes, ...) - Data: 00 BE 0A E0 0D 78 2D 06 68 40 08 24 40 00 00 D3 ... -- CPU_WriteMem(440 bytes @ 0x20000000)  returns 0x1B8 (0003ms, 0759ms total)
T4DA8 001:180 JLINK_WriteReg(R0, 0x1FFFF800)  returns 0x00 (0000ms, 0759ms total)
T4DA8 001:180 JLINK_WriteReg(R1, 0x00B71B00)  returns 0x00 (0000ms, 0759ms total)
T4DA8 001:180 JLINK_WriteReg(R2, 0x00000001)  returns 0x00 (0000ms, 0759ms total)
T4DA8 001:180 JLINK_WriteReg(R3, 0x00000000)  returns 0x00 (0000ms, 0759ms total)
T4DA8 001:180 JLINK_WriteReg(R4, 0x00000000)  returns 0x00 (0000ms, 0759ms total)
T4DA8 001:180 JLINK_WriteReg(R5, 0x00000000)  returns 0x00 (0000ms, 0759ms total)
T4DA8 001:180 JLINK_WriteReg(R6, 0x00000000)  returns 0x00 (0000ms, 0759ms total)
T4DA8 001:180 JLINK_WriteReg(R7, 0x00000000)  returns 0x00 (0001ms, 0760ms total)
T4DA8 001:181 JLINK_WriteReg(R8, 0x00000000)  returns 0x00 (0000ms, 0760ms total)
T4DA8 001:181 JLINK_WriteReg(R9, 0x200001B4)  returns 0x00 (0000ms, 0760ms total)
T4DA8 001:181 JLINK_WriteReg(R10, 0x00000000)  returns 0x00 (0000ms, 0760ms total)
T4DA8 001:181 JLINK_WriteReg(R11, 0x00000000)  returns 0x00 (0000ms, 0760ms total)
T4DA8 001:181 JLINK_WriteReg(R12, 0x00000000)  returns 0x00 (0000ms, 0760ms total)
T4DA8 001:181 JLINK_WriteReg(R13 (SP), 0x20000800)  returns 0x00 (0000ms, 0760ms total)
T4DA8 001:181 JLINK_WriteReg(R14, 0x20000001)  returns 0x00 (0000ms, 0760ms total)
T4DA8 001:181 JLINK_WriteReg(R15 (PC), 0x20000020)  returns 0x00 (0000ms, 0760ms total)
T4DA8 001:181 JLINK_WriteReg(XPSR, 0x01000000)  returns 0x00 (0000ms, 0760ms total)
T4DA8 001:181 JLINK_WriteReg(MSP, 0x20000800)  returns 0x00 (0000ms, 0760ms total)
T4DA8 001:181 JLINK_WriteReg(PSP, 0x20000800)  returns 0x00 (0000ms, 0760ms total)
T4DA8 001:181 JLINK_WriteReg(CFBP, 0x00000000)  returns 0x00 (0000ms, 0760ms total)
T4DA8 001:181 JLINK_SetBPEx(Addr = 0x20000000, Type = 0xFFFFFFF2) -- CPU_ReadMem(2 bytes @ 0x20000000)  returns 0x00000004 (0001ms, 0761ms total)
T4DA8 001:182 JLINK_Go() -- CPU_WriteMem(2 bytes @ 0x20000000) -- CPU_ReadMem(4 bytes @ 0xE0001000) (0001ms, 0762ms total)
T4DA8 001:183 JLINK_IsHalted() -- CPU_ReadMem(2 bytes @ 0x20000000)  returns TRUE (0003ms, 0765ms total)
T4DA8 001:186 JLINK_ReadReg(R15 (PC))  returns 0x20000000 (0000ms, 0762ms total)
T4DA8 001:186 JLINK_ClrBPEx(BPHandle = 0x00000004)  returns 0x00 (0000ms, 0762ms total)
T4DA8 001:186 JLINK_ReadReg(R0)  returns 0x00000000 (0000ms, 0762ms total)
T4DA8 001:186 JLINK_WriteReg(R0, 0x1FFFF800)  returns 0x00 (0000ms, 0762ms total)
T4DA8 001:186 JLINK_WriteReg(R1, 0x00B71B00)  returns 0x00 (0001ms, 0763ms total)
T4DA8 001:187 JLINK_WriteReg(R2, 0x00000001)  returns 0x00 (0000ms, 0763ms total)
T4DA8 001:187 JLINK_WriteReg(R3, 0x00000000)  returns 0x00 (0000ms, 0763ms total)
T4DA8 001:187 JLINK_WriteReg(R4, 0x00000000)  returns 0x00 (0000ms, 0763ms total)
T4DA8 001:187 JLINK_WriteReg(R5, 0x00000000)  returns 0x00 (0000ms, 0763ms total)
T4DA8 001:187 JLINK_WriteReg(R6, 0x00000000)  returns 0x00 (0000ms, 0763ms total)
T4DA8 001:187 JLINK_WriteReg(R7, 0x00000000)  returns 0x00 (0000ms, 0763ms total)
T4DA8 001:187 JLINK_WriteReg(R8, 0x00000000)  returns 0x00 (0000ms, 0763ms total)
T4DA8 001:187 JLINK_WriteReg(R9, 0x200001B4)  returns 0x00 (0000ms, 0763ms total)
T4DA8 001:187 JLINK_WriteReg(R10, 0x00000000)  returns 0x00 (0000ms, 0763ms total)
T4DA8 001:187 JLINK_WriteReg(R11, 0x00000000)  returns 0x00 (0000ms, 0763ms total)
T4DA8 001:187 JLINK_WriteReg(R12, 0x00000000)  returns 0x00 (0000ms, 0763ms total)
T4DA8 001:187 JLINK_WriteReg(R13 (SP), 0x20000800)  returns 0x00 (0000ms, 0763ms total)
T4DA8 001:187 JLINK_WriteReg(R14, 0x20000001)  returns 0x00 (0000ms, 0763ms total)
T4DA8 001:187 JLINK_WriteReg(R15 (PC), 0x20000076)  returns 0x00 (0000ms, 0763ms total)
T4DA8 001:187 JLINK_WriteReg(XPSR, 0x01000000)  returns 0x00 (0000ms, 0763ms total)
T4DA8 001:187 JLINK_WriteReg(MSP, 0x20000800)  returns 0x00 (0000ms, 0763ms total)
T4DA8 001:187 JLINK_WriteReg(PSP, 0x20000800)  returns 0x00 (0000ms, 0763ms total)
T4DA8 001:187 JLINK_WriteReg(CFBP, 0x00000000)  returns 0x00 (0000ms, 0763ms total)
T4DA8 001:187 JLINK_SetBPEx(Addr = 0x20000000, Type = 0xFFFFFFF2)  returns 0x00000005 (0000ms, 0763ms total)
T4DA8 001:187 JLINK_Go() -- CPU_ReadMem(4 bytes @ 0xE0001000) (0002ms, 0765ms total)
T4DA8 001:189 JLINK_IsHalted()  returns FALSE (0000ms, 0765ms total)
T4DA8 001:224 JLINK_IsHalted() -- CPU_ReadMem(2 bytes @ 0x20000000)  returns TRUE (0003ms, 0768ms total)
T4DA8 001:227 JLINK_ReadReg(R15 (PC))  returns 0x20000000 (0000ms, 0765ms total)
T4DA8 001:227 JLINK_ClrBPEx(BPHandle = 0x00000005)  returns 0x00 (0000ms, 0765ms total)
T4DA8 001:227 JLINK_ReadReg(R0)  returns 0x00000000 (0000ms, 0765ms total)
T4DA8 001:279 JLINK_WriteReg(R0, 0x00000001)  returns 0x00 (0000ms, 0765ms total)
T4DA8 001:279 JLINK_WriteReg(R1, 0x00B71B00)  returns 0x00 (0000ms, 0765ms total)
T4DA8 001:279 JLINK_WriteReg(R2, 0x00000001)  returns 0x00 (0000ms, 0765ms total)
T4DA8 001:279 JLINK_WriteReg(R3, 0x00000000)  returns 0x00 (0000ms, 0765ms total)
T4DA8 001:279 JLINK_WriteReg(R4, 0x00000000)  returns 0x00 (0000ms, 0765ms total)
T4DA8 001:279 JLINK_WriteReg(R5, 0x00000000)  returns 0x00 (0001ms, 0766ms total)
T4DA8 001:280 JLINK_WriteReg(R6, 0x00000000)  returns 0x00 (0000ms, 0766ms total)
T4DA8 001:280 JLINK_WriteReg(R7, 0x00000000)  returns 0x00 (0000ms, 0766ms total)
T4DA8 001:280 JLINK_WriteReg(R8, 0x00000000)  returns 0x00 (0000ms, 0766ms total)
T4DA8 001:280 JLINK_WriteReg(R9, 0x200001B4)  returns 0x00 (0000ms, 0766ms total)
T4DA8 001:280 JLINK_WriteReg(R10, 0x00000000)  returns 0x00 (0000ms, 0766ms total)
T4DA8 001:280 JLINK_WriteReg(R11, 0x00000000)  returns 0x00 (0000ms, 0766ms total)
T4DA8 001:280 JLINK_WriteReg(R12, 0x00000000)  returns 0x00 (0000ms, 0766ms total)
T4DA8 001:280 JLINK_WriteReg(R13 (SP), 0x20000800)  returns 0x00 (0000ms, 0766ms total)
T4DA8 001:280 JLINK_WriteReg(R14, 0x20000001)  returns 0x00 (0000ms, 0766ms total)
T4DA8 001:280 JLINK_WriteReg(R15 (PC), 0x2000005A)  returns 0x00 (0000ms, 0766ms total)
T4DA8 001:280 JLINK_WriteReg(XPSR, 0x01000000)  returns 0x00 (0000ms, 0766ms total)
T4DA8 001:280 JLINK_WriteReg(MSP, 0x20000800)  returns 0x00 (0000ms, 0766ms total)
T4DA8 001:280 JLINK_WriteReg(PSP, 0x20000800)  returns 0x00 (0000ms, 0766ms total)
T4DA8 001:280 JLINK_WriteReg(CFBP, 0x00000000)  returns 0x00 (0000ms, 0766ms total)
T4DA8 001:280 JLINK_SetBPEx(Addr = 0x20000000, Type = 0xFFFFFFF2)  returns 0x00000006 (0000ms, 0766ms total)
T4DA8 001:280 JLINK_Go() -- CPU_ReadMem(4 bytes @ 0xE0001000) (0002ms, 0768ms total)
T4DA8 001:282 JLINK_IsHalted() -- CPU_ReadMem(2 bytes @ 0x20000000)  returns TRUE (0003ms, 0771ms total)
T4DA8 001:285 JLINK_ReadReg(R15 (PC))  returns 0x20000000 (0000ms, 0768ms total)
T4DA8 001:285 JLINK_ClrBPEx(BPHandle = 0x00000006)  returns 0x00 (0000ms, 0768ms total)
T4DA8 001:285 JLINK_ReadReg(R0)  returns 0x00000000 (0000ms, 0768ms total)
T4DA8 001:291 JLINK_WriteMem(0x20000000, 0x0164 Bytes, ...) - Data: 00 BE 0A E0 0D 78 2D 06 68 40 08 24 40 00 00 D3 ... -- CPU_WriteMem(356 bytes @ 0x20000000)  returns 0x164 (0003ms, 0771ms total)
T4DA8 001:294 JLINK_WriteReg(R0, 0x08000000)  returns 0x00 (0000ms, 0771ms total)
T4DA8 001:294 JLINK_WriteReg(R1, 0x00B71B00)  returns 0x00 (0000ms, 0771ms total)
T4DA8 001:294 JLINK_WriteReg(R2, 0x00000002)  returns 0x00 (0000ms, 0771ms total)
T4DA8 001:294 JLINK_WriteReg(R3, 0x00000000)  returns 0x00 (0000ms, 0771ms total)
T4DA8 001:294 JLINK_WriteReg(R4, 0x00000000)  returns 0x00 (0000ms, 0771ms total)
T4DA8 001:294 JLINK_WriteReg(R5, 0x00000000)  returns 0x00 (0000ms, 0771ms total)
T4DA8 001:294 JLINK_WriteReg(R6, 0x00000000)  returns 0x00 (0000ms, 0771ms total)
T4DA8 001:294 JLINK_WriteReg(R7, 0x00000000)  returns 0x00 (0000ms, 0771ms total)
T4DA8 001:294 JLINK_WriteReg(R8, 0x00000000)  returns 0x00 (0000ms, 0771ms total)
T4DA8 001:294 JLINK_WriteReg(R9, 0x20000160)  returns 0x00 (0000ms, 0771ms total)
T4DA8 001:294 JLINK_WriteReg(R10, 0x00000000)  returns 0x00 (0000ms, 0771ms total)
T4DA8 001:294 JLINK_WriteReg(R11, 0x00000000)  returns 0x00 (0000ms, 0771ms total)
T4DA8 001:294 JLINK_WriteReg(R12, 0x00000000)  returns 0x00 (0000ms, 0771ms total)
T4DA8 001:294 JLINK_WriteReg(R13 (SP), 0x20000800)  returns 0x00 (0000ms, 0771ms total)
T4DA8 001:294 JLINK_WriteReg(R14, 0x20000001)  returns 0x00 (0000ms, 0771ms total)
T4DA8 001:294 JLINK_WriteReg(R15 (PC), 0x20000038)  returns 0x00 (0000ms, 0771ms total)
T4DA8 001:294 JLINK_WriteReg(XPSR, 0x01000000)  returns 0x00 (0000ms, 0771ms total)
T4DA8 001:294 JLINK_WriteReg(MSP, 0x20000800)  returns 0x00 (0000ms, 0771ms total)
T4DA8 001:294 JLINK_WriteReg(PSP, 0x20000800)  returns 0x00 (0000ms, 0771ms total)
T4DA8 001:295 JLINK_WriteReg(CFBP, 0x00000000)  returns 0x00 (0000ms, 0771ms total)
T4DA8 001:295 JLINK_SetBPEx(Addr = 0x20000000, Type = 0xFFFFFFF2) -- CPU_ReadMem(2 bytes @ 0x20000000)  returns 0x00000007 (0000ms, 0771ms total)
T4DA8 001:295 JLINK_Go() -- CPU_WriteMem(2 bytes @ 0x20000000) -- CPU_ReadMem(4 bytes @ 0xE0001000) (0002ms, 0773ms total)
T4DA8 001:297 JLINK_IsHalted() -- CPU_ReadMem(2 bytes @ 0x20000000)  returns TRUE (0002ms, 0775ms total)
T4DA8 001:299 JLINK_ReadReg(R15 (PC))  returns 0x20000000 (0000ms, 0773ms total)
T4DA8 001:299 JLINK_ClrBPEx(BPHandle = 0x00000007)  returns 0x00 (0000ms, 0773ms total)
T4DA8 001:299 JLINK_ReadReg(R0)  returns 0x00000000 (0000ms, 0773ms total)
T4DA8 001:299 JLINK_WriteMem(0x20000164, 0x0400 Bytes, ...) - Data: E8 48 00 20 45 01 00 08 AD 3F 00 08 D5 2F 00 08 ... -- CPU_WriteMem(1024 bytes @ 0x20000164)  returns 0x400 (0007ms, 0780ms total)
T4DA8 001:306 JLINK_WriteReg(R0, 0x08000000)  returns 0x00 (0000ms, 0780ms total)
T4DA8 001:306 JLINK_WriteReg(R1, 0x00000400)  returns 0x00 (0000ms, 0780ms total)
T4DA8 001:306 JLINK_WriteReg(R2, 0x20000164)  returns 0x00 (0000ms, 0780ms total)
T4DA8 001:306 JLINK_WriteReg(R3, 0x00000000)  returns 0x00 (0000ms, 0780ms total)
T4DA8 001:306 JLINK_WriteReg(R4, 0x00000000)  returns 0x00 (0000ms, 0780ms total)
T4DA8 001:306 JLINK_WriteReg(R5, 0x00000000)  returns 0x00 (0000ms, 0780ms total)
T4DA8 001:306 JLINK_WriteReg(R6, 0x00000000)  returns 0x00 (0000ms, 0780ms total)
T4DA8 001:306 JLINK_WriteReg(R7, 0x00000000)  returns 0x00 (0000ms, 0780ms total)
T4DA8 001:306 JLINK_WriteReg(R8, 0x00000000)  returns 0x00 (0000ms, 0780ms total)
T4DA8 001:306 JLINK_WriteReg(R9, 0x20000160)  returns 0x00 (0000ms, 0780ms total)
T4DA8 001:306 JLINK_WriteReg(R10, 0x00000000)  returns 0x00 (0000ms, 0780ms total)
T4DA8 001:306 JLINK_WriteReg(R11, 0x00000000)  returns 0x00 (0000ms, 0780ms total)
T4DA8 001:306 JLINK_WriteReg(R12, 0x00000000)  returns 0x00 (0000ms, 0780ms total)
T4DA8 001:306 JLINK_WriteReg(R13 (SP), 0x20000800)  returns 0x00 (0000ms, 0780ms total)
T4DA8 001:306 JLINK_WriteReg(R14, 0x20000001)  returns 0x00 (0000ms, 0780ms total)
T4DA8 001:306 JLINK_WriteReg(R15 (PC), 0x200000F4)  returns 0x00 (0000ms, 0780ms total)
T4DA8 001:306 JLINK_WriteReg(XPSR, 0x01000000)  returns 0x00 (0000ms, 0780ms total)
T4DA8 001:306 JLINK_WriteReg(MSP, 0x20000800)  returns 0x00 (0000ms, 0780ms total)
T4DA8 001:306 JLINK_WriteReg(PSP, 0x20000800)  returns 0x00 (0000ms, 0780ms total)
T4DA8 001:306 JLINK_WriteReg(CFBP, 0x00000000)  returns 0x00 (0000ms, 0780ms total)
T4DA8 001:306 JLINK_SetBPEx(Addr = 0x20000000, Type = 0xFFFFFFF2)  returns 0x00000008 (0000ms, 0780ms total)
T4DA8 001:306 JLINK_Go() -- CPU_ReadMem(4 bytes @ 0xE0001000) (0002ms, 0782ms total)
T4DA8 001:309 JLINK_IsHalted()  returns FALSE (0000ms, 0783ms total)
T4DA8 001:337 JLINK_IsHalted()  returns FALSE (0000ms, 0783ms total)
T4DA8 001:339 JLINK_IsHalted()  returns FALSE (0000ms, 0783ms total)
T4DA8 001:341 JLINK_IsHalted() -- CPU_ReadMem(2 bytes @ 0x20000000)  returns TRUE (0002ms, 0785ms total)
T4DA8 001:343 JLINK_ReadReg(R15 (PC))  returns 0x20000000 (0000ms, 0783ms total)
T4DA8 001:343 JLINK_ClrBPEx(BPHandle = 0x00000008)  returns 0x00 (0000ms, 0783ms total)
T4DA8 001:343 JLINK_ReadReg(R0)  returns 0x00000000 (0000ms, 0783ms total)
T4DA8 001:344 JLINK_WriteMem(0x20000164, 0x0400 Bytes, ...) - Data: 42 EA 83 12 A7 FB 02 01 B6 EB 0B 01 64 EB 00 04 ... -- CPU_WriteMem(1024 bytes @ 0x20000164)  returns 0x400 (0006ms, 0789ms total)
T4DA8 001:350 JLINK_WriteReg(R0, 0x08000400)  returns 0x00 (0000ms, 0789ms total)
T4DA8 001:350 JLINK_WriteReg(R1, 0x00000400)  returns 0x00 (0000ms, 0789ms total)
T4DA8 001:350 JLINK_WriteReg(R2, 0x20000164)  returns 0x00 (0000ms, 0789ms total)
T4DA8 001:350 JLINK_WriteReg(R3, 0x00000000)  returns 0x00 (0000ms, 0789ms total)
T4DA8 001:350 JLINK_WriteReg(R4, 0x00000000)  returns 0x00 (0001ms, 0790ms total)
T4DA8 001:351 JLINK_WriteReg(R5, 0x00000000)  returns 0x00 (0000ms, 0790ms total)
T4DA8 001:351 JLINK_WriteReg(R6, 0x00000000)  returns 0x00 (0000ms, 0790ms total)
T4DA8 001:351 JLINK_WriteReg(R7, 0x00000000)  returns 0x00 (0000ms, 0790ms total)
T4DA8 001:351 JLINK_WriteReg(R8, 0x00000000)  returns 0x00 (0000ms, 0790ms total)
T4DA8 001:351 JLINK_WriteReg(R9, 0x20000160)  returns 0x00 (0000ms, 0790ms total)
T4DA8 001:351 JLINK_WriteReg(R10, 0x00000000)  returns 0x00 (0000ms, 0790ms total)
T4DA8 001:351 JLINK_WriteReg(R11, 0x00000000)  returns 0x00 (0000ms, 0790ms total)
T4DA8 001:351 JLINK_WriteReg(R12, 0x00000000)  returns 0x00 (0000ms, 0790ms total)
T4DA8 001:351 JLINK_WriteReg(R13 (SP), 0x20000800)  returns 0x00 (0000ms, 0790ms total)
T4DA8 001:351 JLINK_WriteReg(R14, 0x20000001)  returns 0x00 (0000ms, 0790ms total)
T4DA8 001:351 JLINK_WriteReg(R15 (PC), 0x200000F4)  returns 0x00 (0000ms, 0790ms total)
T4DA8 001:351 JLINK_WriteReg(XPSR, 0x01000000)  returns 0x00 (0000ms, 0790ms total)
T4DA8 001:351 JLINK_WriteReg(MSP, 0x20000800)  returns 0x00 (0000ms, 0790ms total)
T4DA8 001:351 JLINK_WriteReg(PSP, 0x20000800)  returns 0x00 (0000ms, 0790ms total)
T4DA8 001:351 JLINK_WriteReg(CFBP, 0x00000000)  returns 0x00 (0000ms, 0790ms total)
T4DA8 001:351 JLINK_SetBPEx(Addr = 0x20000000, Type = 0xFFFFFFF2)  returns 0x00000009 (0000ms, 0790ms total)
T4DA8 001:351 JLINK_Go() -- CPU_ReadMem(4 bytes @ 0xE0001000) (0002ms, 0792ms total)
T4DA8 001:353 JLINK_IsHalted()  returns FALSE (0000ms, 0792ms total)
T4DA8 001:365 JLINK_IsHalted()  returns FALSE (0000ms, 0792ms total)
T4DA8 001:367 JLINK_IsHalted()  returns FALSE (0000ms, 0792ms total)
T4DA8 001:369 JLINK_IsHalted()  returns FALSE (0000ms, 0792ms total)
T4DA8 001:371 JLINK_IsHalted()  returns FALSE (0000ms, 0792ms total)
T4DA8 001:374 JLINK_IsHalted()  returns FALSE (0000ms, 0792ms total)
T4DA8 001:382 JLINK_IsHalted()  returns FALSE (0000ms, 0792ms total)
T4DA8 001:384 JLINK_IsHalted() -- CPU_ReadMem(2 bytes @ 0x20000000)  returns TRUE (0003ms, 0795ms total)
T4DA8 001:387 JLINK_ReadReg(R15 (PC))  returns 0x20000000 (0000ms, 0792ms total)
T4DA8 001:387 JLINK_ClrBPEx(BPHandle = 0x00000009)  returns 0x00 (0000ms, 0792ms total)
T4DA8 001:387 JLINK_ReadReg(R0)  returns 0x00000000 (0000ms, 0792ms total)
T4DA8 001:389 JLINK_WriteMem(0x20000164, 0x0400 Bytes, ...) - Data: C0 F1 40 02 50 46 00 F0 C3 F8 06 46 0D 46 50 46 ... -- CPU_WriteMem(1024 bytes @ 0x20000164)  returns 0x400 (0006ms, 0798ms total)
T4DA8 001:395 JLINK_WriteReg(R0, 0x08000800)  returns 0x00 (0000ms, 0798ms total)
T4DA8 001:395 JLINK_WriteReg(R1, 0x00000400)  returns 0x00 (0000ms, 0798ms total)
T4DA8 001:395 JLINK_WriteReg(R2, 0x20000164)  returns 0x00 (0000ms, 0798ms total)
T4DA8 001:395 JLINK_WriteReg(R3, 0x00000000)  returns 0x00 (0000ms, 0798ms total)
T4DA8 001:395 JLINK_WriteReg(R4, 0x00000000)  returns 0x00 (0000ms, 0798ms total)
T4DA8 001:395 JLINK_WriteReg(R5, 0x00000000)  returns 0x00 (0001ms, 0799ms total)
T4DA8 001:396 JLINK_WriteReg(R6, 0x00000000)  returns 0x00 (0000ms, 0799ms total)
T4DA8 001:396 JLINK_WriteReg(R7, 0x00000000)  returns 0x00 (0000ms, 0799ms total)
T4DA8 001:396 JLINK_WriteReg(R8, 0x00000000)  returns 0x00 (0000ms, 0799ms total)
T4DA8 001:396 JLINK_WriteReg(R9, 0x20000160)  returns 0x00 (0000ms, 0799ms total)
T4DA8 001:396 JLINK_WriteReg(R10, 0x00000000)  returns 0x00 (0000ms, 0799ms total)
T4DA8 001:396 JLINK_WriteReg(R11, 0x00000000)  returns 0x00 (0000ms, 0799ms total)
T4DA8 001:396 JLINK_WriteReg(R12, 0x00000000)  returns 0x00 (0000ms, 0799ms total)
T4DA8 001:396 JLINK_WriteReg(R13 (SP), 0x20000800)  returns 0x00 (0000ms, 0799ms total)
T4DA8 001:396 JLINK_WriteReg(R14, 0x20000001)  returns 0x00 (0000ms, 0799ms total)
T4DA8 001:396 JLINK_WriteReg(R15 (PC), 0x200000F4)  returns 0x00 (0000ms, 0799ms total)
T4DA8 001:396 JLINK_WriteReg(XPSR, 0x01000000)  returns 0x00 (0000ms, 0799ms total)
T4DA8 001:396 JLINK_WriteReg(MSP, 0x20000800)  returns 0x00 (0000ms, 0799ms total)
T4DA8 001:396 JLINK_WriteReg(PSP, 0x20000800)  returns 0x00 (0000ms, 0799ms total)
T4DA8 001:396 JLINK_WriteReg(CFBP, 0x00000000)  returns 0x00 (0000ms, 0799ms total)
T4DA8 001:396 JLINK_SetBPEx(Addr = 0x20000000, Type = 0xFFFFFFF2)  returns 0x0000000A (0000ms, 0799ms total)
T4DA8 001:396 JLINK_Go() -- CPU_ReadMem(4 bytes @ 0xE0001000) (0002ms, 0801ms total)
T4DA8 001:398 JLINK_IsHalted()  returns FALSE (0000ms, 0801ms total)
T4DA8 001:413 JLINK_IsHalted()  returns FALSE (0000ms, 0801ms total)
T4DA8 001:415 JLINK_IsHalted()  returns FALSE (0000ms, 0801ms total)
T4DA8 001:417 JLINK_IsHalted()  returns FALSE (0000ms, 0801ms total)
T4DA8 001:429 JLINK_IsHalted() -- CPU_ReadMem(2 bytes @ 0x20000000)  returns TRUE (0003ms, 0804ms total)
T4DA8 001:432 JLINK_ReadReg(R15 (PC))  returns 0x20000000 (0000ms, 0801ms total)
T4DA8 001:432 JLINK_ClrBPEx(BPHandle = 0x0000000A)  returns 0x00 (0000ms, 0801ms total)
T4DA8 001:432 JLINK_ReadReg(R0)  returns 0x00000000 (0000ms, 0801ms total)
T4DA8 001:434 JLINK_WriteMem(0x20000164, 0x0400 Bytes, ...) - Data: 82 68 0B 4B 1A 40 D1 F8 08 C0 CB 68 43 EA 0C 03 ... -- CPU_WriteMem(1024 bytes @ 0x20000164)  returns 0x400 (0007ms, 0808ms total)
T4DA8 001:441 JLINK_WriteReg(R0, 0x08000C00)  returns 0x00 (0000ms, 0808ms total)
T4DA8 001:441 JLINK_WriteReg(R1, 0x00000400)  returns 0x00 (0000ms, 0808ms total)
T4DA8 001:441 JLINK_WriteReg(R2, 0x20000164)  returns 0x00 (0000ms, 0808ms total)
T4DA8 001:441 JLINK_WriteReg(R3, 0x00000000)  returns 0x00 (0000ms, 0808ms total)
T4DA8 001:441 JLINK_WriteReg(R4, 0x00000000)  returns 0x00 (0000ms, 0808ms total)
T4DA8 001:441 JLINK_WriteReg(R5, 0x00000000)  returns 0x00 (0000ms, 0808ms total)
T4DA8 001:441 JLINK_WriteReg(R6, 0x00000000)  returns 0x00 (0000ms, 0808ms total)
T4DA8 001:441 JLINK_WriteReg(R7, 0x00000000)  returns 0x00 (0000ms, 0808ms total)
T4DA8 001:441 JLINK_WriteReg(R8, 0x00000000)  returns 0x00 (0000ms, 0808ms total)
T4DA8 001:441 JLINK_WriteReg(R9, 0x20000160)  returns 0x00 (0000ms, 0808ms total)
T4DA8 001:441 JLINK_WriteReg(R10, 0x00000000)  returns 0x00 (0000ms, 0808ms total)
T4DA8 001:441 JLINK_WriteReg(R11, 0x00000000)  returns 0x00 (0000ms, 0808ms total)
T4DA8 001:441 JLINK_WriteReg(R12, 0x00000000)  returns 0x00 (0000ms, 0808ms total)
T4DA8 001:441 JLINK_WriteReg(R13 (SP), 0x20000800)  returns 0x00 (0000ms, 0808ms total)
T4DA8 001:441 JLINK_WriteReg(R14, 0x20000001)  returns 0x00 (0000ms, 0808ms total)
T4DA8 001:441 JLINK_WriteReg(R15 (PC), 0x200000F4)  returns 0x00 (0000ms, 0808ms total)
T4DA8 001:441 JLINK_WriteReg(XPSR, 0x01000000)  returns 0x00 (0000ms, 0808ms total)
T4DA8 001:441 JLINK_WriteReg(MSP, 0x20000800)  returns 0x00 (0000ms, 0808ms total)
T4DA8 001:441 JLINK_WriteReg(PSP, 0x20000800)  returns 0x00 (0000ms, 0808ms total)
T4DA8 001:441 JLINK_WriteReg(CFBP, 0x00000000)  returns 0x00 (0000ms, 0808ms total)
T4DA8 001:441 JLINK_SetBPEx(Addr = 0x20000000, Type = 0xFFFFFFF2)  returns 0x0000000B (0000ms, 0808ms total)
T4DA8 001:441 JLINK_Go() -- CPU_ReadMem(4 bytes @ 0xE0001000) (0002ms, 0810ms total)
T4DA8 001:443 JLINK_IsHalted()  returns FALSE (0001ms, 0811ms total)
T4DA8 001:457 JLINK_IsHalted()  returns FALSE (0000ms, 0810ms total)
T4DA8 001:459 JLINK_IsHalted()  returns FALSE (0000ms, 0810ms total)
T4DA8 001:461 JLINK_IsHalted()  returns FALSE (0000ms, 0810ms total)
T4DA8 001:463 JLINK_IsHalted()  returns FALSE (0000ms, 0810ms total)
T4DA8 001:465 JLINK_IsHalted()  returns FALSE (0000ms, 0810ms total)
T4DA8 001:466 JLINK_IsHalted()  returns FALSE (0001ms, 0811ms total)
T4DA8 001:476 JLINK_IsHalted() -- CPU_ReadMem(2 bytes @ 0x20000000)  returns TRUE (0003ms, 0813ms total)
T4DA8 001:479 JLINK_ReadReg(R15 (PC))  returns 0x20000000 (0000ms, 0810ms total)
T4DA8 001:479 JLINK_ClrBPEx(BPHandle = 0x0000000B)  returns 0x00 (0000ms, 0810ms total)
T4DA8 001:479 JLINK_ReadReg(R0)  returns 0x00000000 (0000ms, 0810ms total)
T4DA8 001:481 JLINK_WriteMem(0x20000164, 0x0400 Bytes, ...) - Data: 07 F0 D3 FD BD E8 10 40 4F F4 80 61 05 48 01 F0 ... -- CPU_WriteMem(1024 bytes @ 0x20000164)  returns 0x400 (0006ms, 0816ms total)
T4DA8 001:487 JLINK_WriteReg(R0, 0x08001000)  returns 0x00 (0000ms, 0816ms total)
T4DA8 001:487 JLINK_WriteReg(R1, 0x00000400)  returns 0x00 (0000ms, 0816ms total)
T4DA8 001:487 JLINK_WriteReg(R2, 0x20000164)  returns 0x00 (0000ms, 0816ms total)
T4DA8 001:487 JLINK_WriteReg(R3, 0x00000000)  returns 0x00 (0000ms, 0816ms total)
T4DA8 001:487 JLINK_WriteReg(R4, 0x00000000)  returns 0x00 (0000ms, 0816ms total)
T4DA8 001:487 JLINK_WriteReg(R5, 0x00000000)  returns 0x00 (0000ms, 0816ms total)
T4DA8 001:487 JLINK_WriteReg(R6, 0x00000000)  returns 0x00 (0000ms, 0816ms total)
T4DA8 001:487 JLINK_WriteReg(R7, 0x00000000)  returns 0x00 (0000ms, 0816ms total)
T4DA8 001:487 JLINK_WriteReg(R8, 0x00000000)  returns 0x00 (0000ms, 0816ms total)
T4DA8 001:487 JLINK_WriteReg(R9, 0x20000160)  returns 0x00 (0000ms, 0816ms total)
T4DA8 001:487 JLINK_WriteReg(R10, 0x00000000)  returns 0x00 (0000ms, 0816ms total)
T4DA8 001:487 JLINK_WriteReg(R11, 0x00000000)  returns 0x00 (0000ms, 0816ms total)
T4DA8 001:487 JLINK_WriteReg(R12, 0x00000000)  returns 0x00 (0000ms, 0816ms total)
T4DA8 001:487 JLINK_WriteReg(R13 (SP), 0x20000800)  returns 0x00 (0000ms, 0816ms total)
T4DA8 001:487 JLINK_WriteReg(R14, 0x20000001)  returns 0x00 (0000ms, 0816ms total)
T4DA8 001:487 JLINK_WriteReg(R15 (PC), 0x200000F4)  returns 0x00 (0000ms, 0816ms total)
T4DA8 001:487 JLINK_WriteReg(XPSR, 0x01000000)  returns 0x00 (0000ms, 0816ms total)
T4DA8 001:487 JLINK_WriteReg(MSP, 0x20000800)  returns 0x00 (0000ms, 0816ms total)
T4DA8 001:487 JLINK_WriteReg(PSP, 0x20000800)  returns 0x00 (0000ms, 0816ms total)
T4DA8 001:487 JLINK_WriteReg(CFBP, 0x00000000)  returns 0x00 (0000ms, 0816ms total)
T4DA8 001:487 JLINK_SetBPEx(Addr = 0x20000000, Type = 0xFFFFFFF2)  returns 0x0000000C (0000ms, 0816ms total)
T4DA8 001:487 JLINK_Go() -- CPU_ReadMem(4 bytes @ 0xE0001000) (0003ms, 0819ms total)
T4DA8 001:490 JLINK_IsHalted()  returns FALSE (0000ms, 0819ms total)
T4DA8 001:501 JLINK_IsHalted()  returns FALSE (0000ms, 0819ms total)
T4DA8 001:503 JLINK_IsHalted()  returns FALSE (0000ms, 0819ms total)
T4DA8 001:505 JLINK_IsHalted()  returns FALSE (0000ms, 0819ms total)
T4DA8 001:506 JLINK_IsHalted()  returns FALSE (0000ms, 0819ms total)
T4DA8 001:509 JLINK_IsHalted()  returns FALSE (0000ms, 0819ms total)
T4DA8 001:511 JLINK_IsHalted()  returns FALSE (0000ms, 0819ms total)
T4DA8 001:512 JLINK_IsHalted()  returns FALSE (0001ms, 0820ms total)
T4DA8 001:523 JLINK_IsHalted() -- CPU_ReadMem(2 bytes @ 0x20000000)  returns TRUE (0003ms, 0822ms total)
T4DA8 001:526 JLINK_ReadReg(R15 (PC))  returns 0x20000000 (0000ms, 0819ms total)
T4DA8 001:526 JLINK_ClrBPEx(BPHandle = 0x0000000C)  returns 0x00 (0000ms, 0819ms total)
T4DA8 001:526 JLINK_ReadReg(R0)  returns 0x00000000 (0000ms, 0819ms total)
T4DA8 001:527 JLINK_WriteMem(0x20000164, 0x0400 Bytes, ...) - Data: AF FE 48 46 FF F7 BA FE 25 4F 00 97 25 48 01 90 ... -- CPU_WriteMem(1024 bytes @ 0x20000164)  returns 0x400 (0007ms, 0826ms total)
T4DA8 001:534 JLINK_WriteReg(R0, 0x08001400)  returns 0x00 (0000ms, 0826ms total)
T4DA8 001:534 JLINK_WriteReg(R1, 0x00000400)  returns 0x00 (0000ms, 0826ms total)
T4DA8 001:534 JLINK_WriteReg(R2, 0x20000164)  returns 0x00 (0000ms, 0826ms total)
T4DA8 001:534 JLINK_WriteReg(R3, 0x00000000)  returns 0x00 (0000ms, 0826ms total)
T4DA8 001:534 JLINK_WriteReg(R4, 0x00000000)  returns 0x00 (0000ms, 0826ms total)
T4DA8 001:534 JLINK_WriteReg(R5, 0x00000000)  returns 0x00 (0000ms, 0826ms total)
T4DA8 001:534 JLINK_WriteReg(R6, 0x00000000)  returns 0x00 (0000ms, 0826ms total)
T4DA8 001:534 JLINK_WriteReg(R7, 0x00000000)  returns 0x00 (0000ms, 0826ms total)
T4DA8 001:534 JLINK_WriteReg(R8, 0x00000000)  returns 0x00 (0001ms, 0827ms total)
T4DA8 001:535 JLINK_WriteReg(R9, 0x20000160)  returns 0x00 (0000ms, 0827ms total)
T4DA8 001:535 JLINK_WriteReg(R10, 0x00000000)  returns 0x00 (0000ms, 0827ms total)
T4DA8 001:535 JLINK_WriteReg(R11, 0x00000000)  returns 0x00 (0000ms, 0827ms total)
T4DA8 001:535 JLINK_WriteReg(R12, 0x00000000)  returns 0x00 (0000ms, 0827ms total)
T4DA8 001:535 JLINK_WriteReg(R13 (SP), 0x20000800)  returns 0x00 (0000ms, 0827ms total)
T4DA8 001:535 JLINK_WriteReg(R14, 0x20000001)  returns 0x00 (0000ms, 0827ms total)
T4DA8 001:535 JLINK_WriteReg(R15 (PC), 0x200000F4)  returns 0x00 (0000ms, 0827ms total)
T4DA8 001:535 JLINK_WriteReg(XPSR, 0x01000000)  returns 0x00 (0000ms, 0827ms total)
T4DA8 001:535 JLINK_WriteReg(MSP, 0x20000800)  returns 0x00 (0000ms, 0827ms total)
T4DA8 001:535 JLINK_WriteReg(PSP, 0x20000800)  returns 0x00 (0000ms, 0827ms total)
T4DA8 001:535 JLINK_WriteReg(CFBP, 0x00000000)  returns 0x00 (0000ms, 0827ms total)
T4DA8 001:535 JLINK_SetBPEx(Addr = 0x20000000, Type = 0xFFFFFFF2)  returns 0x0000000D (0000ms, 0827ms total)
T4DA8 001:535 JLINK_Go() -- CPU_ReadMem(4 bytes @ 0xE0001000) (0002ms, 0829ms total)
T4DA8 001:537 JLINK_IsHalted()  returns FALSE (0001ms, 0830ms total)
T4DA8 001:549 JLINK_IsHalted()  returns FALSE (0000ms, 0829ms total)
T4DA8 001:551 JLINK_IsHalted()  returns FALSE (0000ms, 0829ms total)
T4DA8 001:553 JLINK_IsHalted()  returns FALSE (0000ms, 0829ms total)
T4DA8 001:555 JLINK_IsHalted()  returns FALSE (0000ms, 0829ms total)
T4DA8 001:557 JLINK_IsHalted()  returns FALSE (0000ms, 0829ms total)
T4DA8 001:559 JLINK_IsHalted()  returns FALSE (0000ms, 0829ms total)
T4DA8 001:561 JLINK_IsHalted()  returns FALSE (0001ms, 0830ms total)
T4DA8 001:571 JLINK_IsHalted() -- CPU_ReadMem(2 bytes @ 0x20000000)  returns TRUE (0003ms, 0832ms total)
T4DA8 001:574 JLINK_ReadReg(R15 (PC))  returns 0x20000000 (0000ms, 0829ms total)
T4DA8 001:574 JLINK_ClrBPEx(BPHandle = 0x0000000D)  returns 0x00 (0000ms, 0829ms total)
T4DA8 001:574 JLINK_ReadReg(R0)  returns 0x00000000 (0000ms, 0829ms total)
T4DA8 001:574 JLINK_WriteMem(0x20000164, 0x0400 Bytes, ...) - Data: 70 47 19 68 D0 F8 00 C0 41 EA 0C 01 19 60 11 68 ... -- CPU_WriteMem(1024 bytes @ 0x20000164)  returns 0x400 (0007ms, 0836ms total)
T4DA8 001:581 JLINK_WriteReg(R0, 0x08001800)  returns 0x00 (0000ms, 0836ms total)
T4DA8 001:581 JLINK_WriteReg(R1, 0x00000400)  returns 0x00 (0000ms, 0836ms total)
T4DA8 001:581 JLINK_WriteReg(R2, 0x20000164)  returns 0x00 (0000ms, 0836ms total)
T4DA8 001:581 JLINK_WriteReg(R3, 0x00000000)  returns 0x00 (0000ms, 0836ms total)
T4DA8 001:581 JLINK_WriteReg(R4, 0x00000000)  returns 0x00 (0000ms, 0836ms total)
T4DA8 001:581 JLINK_WriteReg(R5, 0x00000000)  returns 0x00 (0000ms, 0836ms total)
T4DA8 001:581 JLINK_WriteReg(R6, 0x00000000)  returns 0x00 (0000ms, 0836ms total)
T4DA8 001:581 JLINK_WriteReg(R7, 0x00000000)  returns 0x00 (0000ms, 0836ms total)
T4DA8 001:581 JLINK_WriteReg(R8, 0x00000000)  returns 0x00 (0000ms, 0836ms total)
T4DA8 001:581 JLINK_WriteReg(R9, 0x20000160)  returns 0x00 (0000ms, 0836ms total)
T4DA8 001:581 JLINK_WriteReg(R10, 0x00000000)  returns 0x00 (0000ms, 0836ms total)
T4DA8 001:581 JLINK_WriteReg(R11, 0x00000000)  returns 0x00 (0000ms, 0836ms total)
T4DA8 001:581 JLINK_WriteReg(R12, 0x00000000)  returns 0x00 (0000ms, 0836ms total)
T4DA8 001:581 JLINK_WriteReg(R13 (SP), 0x20000800)  returns 0x00 (0000ms, 0836ms total)
T4DA8 001:581 JLINK_WriteReg(R14, 0x20000001)  returns 0x00 (0000ms, 0836ms total)
T4DA8 001:581 JLINK_WriteReg(R15 (PC), 0x200000F4)  returns 0x00 (0000ms, 0836ms total)
T4DA8 001:581 JLINK_WriteReg(XPSR, 0x01000000)  returns 0x00 (0000ms, 0836ms total)
T4DA8 001:581 JLINK_WriteReg(MSP, 0x20000800)  returns 0x00 (0000ms, 0836ms total)
T4DA8 001:581 JLINK_WriteReg(PSP, 0x20000800)  returns 0x00 (0000ms, 0836ms total)
T4DA8 001:581 JLINK_WriteReg(CFBP, 0x00000000)  returns 0x00 (0000ms, 0836ms total)
T4DA8 001:581 JLINK_SetBPEx(Addr = 0x20000000, Type = 0xFFFFFFF2)  returns 0x0000000E (0000ms, 0836ms total)
T4DA8 001:581 JLINK_Go() -- CPU_ReadMem(4 bytes @ 0xE0001000) (0002ms, 0838ms total)
T4DA8 001:583 JLINK_IsHalted()  returns FALSE (0001ms, 0839ms total)
T4DA8 001:597 JLINK_IsHalted()  returns FALSE (0000ms, 0838ms total)
T4DA8 001:599 JLINK_IsHalted()  returns FALSE (0000ms, 0838ms total)
T4DA8 001:601 JLINK_IsHalted()  returns FALSE (0000ms, 0838ms total)
T4DA8 001:603 JLINK_IsHalted()  returns FALSE (0001ms, 0839ms total)
T4DA8 001:615 JLINK_IsHalted() -- CPU_ReadMem(2 bytes @ 0x20000000)  returns TRUE (0003ms, 0841ms total)
T4DA8 001:618 JLINK_ReadReg(R15 (PC))  returns 0x20000000 (0000ms, 0838ms total)
T4DA8 001:618 JLINK_ClrBPEx(BPHandle = 0x0000000E)  returns 0x00 (0000ms, 0838ms total)
T4DA8 001:618 JLINK_ReadReg(R0)  returns 0x00000000 (0000ms, 0838ms total)
T4DA8 001:618 JLINK_WriteMem(0x20000164, 0x0400 Bytes, ...) - Data: 86 F8 24 B0 4F F4 96 71 4F F4 80 50 06 F0 28 F9 ... -- CPU_WriteMem(1024 bytes @ 0x20000164)  returns 0x400 (0008ms, 0846ms total)
T4DA8 001:626 JLINK_WriteReg(R0, 0x08001C00)  returns 0x00 (0000ms, 0846ms total)
T4DA8 001:626 JLINK_WriteReg(R1, 0x00000400)  returns 0x00 (0000ms, 0846ms total)
T4DA8 001:626 JLINK_WriteReg(R2, 0x20000164)  returns 0x00 (0000ms, 0846ms total)
T4DA8 001:626 JLINK_WriteReg(R3, 0x00000000)  returns 0x00 (0000ms, 0846ms total)
T4DA8 001:626 JLINK_WriteReg(R4, 0x00000000)  returns 0x00 (0000ms, 0846ms total)
T4DA8 001:626 JLINK_WriteReg(R5, 0x00000000)  returns 0x00 (0000ms, 0846ms total)
T4DA8 001:626 JLINK_WriteReg(R6, 0x00000000)  returns 0x00 (0000ms, 0846ms total)
T4DA8 001:626 JLINK_WriteReg(R7, 0x00000000)  returns 0x00 (0000ms, 0846ms total)
T4DA8 001:626 JLINK_WriteReg(R8, 0x00000000)  returns 0x00 (0000ms, 0846ms total)
T4DA8 001:626 JLINK_WriteReg(R9, 0x20000160)  returns 0x00 (0000ms, 0846ms total)
T4DA8 001:626 JLINK_WriteReg(R10, 0x00000000)  returns 0x00 (0000ms, 0846ms total)
T4DA8 001:626 JLINK_WriteReg(R11, 0x00000000)  returns 0x00 (0000ms, 0846ms total)
T4DA8 001:626 JLINK_WriteReg(R12, 0x00000000)  returns 0x00 (0000ms, 0846ms total)
T4DA8 001:626 JLINK_WriteReg(R13 (SP), 0x20000800)  returns 0x00 (0000ms, 0846ms total)
T4DA8 001:626 JLINK_WriteReg(R14, 0x20000001)  returns 0x00 (0000ms, 0846ms total)
T4DA8 001:626 JLINK_WriteReg(R15 (PC), 0x200000F4)  returns 0x00 (0000ms, 0846ms total)
T4DA8 001:626 JLINK_WriteReg(XPSR, 0x01000000)  returns 0x00 (0000ms, 0846ms total)
T4DA8 001:626 JLINK_WriteReg(MSP, 0x20000800)  returns 0x00 (0000ms, 0846ms total)
T4DA8 001:626 JLINK_WriteReg(PSP, 0x20000800)  returns 0x00 (0000ms, 0846ms total)
T4DA8 001:626 JLINK_WriteReg(CFBP, 0x00000000)  returns 0x00 (0000ms, 0846ms total)
T4DA8 001:626 JLINK_SetBPEx(Addr = 0x20000000, Type = 0xFFFFFFF2)  returns 0x0000000F (0000ms, 0846ms total)
T4DA8 001:626 JLINK_Go() -- CPU_ReadMem(4 bytes @ 0xE0001000) (0001ms, 0847ms total)
T4DA8 001:627 JLINK_IsHalted()  returns FALSE (0000ms, 0847ms total)
T4DA8 001:643 JLINK_IsHalted()  returns FALSE (0000ms, 0847ms total)
T4DA8 001:645 JLINK_IsHalted()  returns FALSE (0000ms, 0847ms total)
T4DA8 001:647 JLINK_IsHalted()  returns FALSE (0000ms, 0847ms total)
T4DA8 001:649 JLINK_IsHalted()  returns FALSE (0000ms, 0847ms total)
T4DA8 001:651 JLINK_IsHalted()  returns FALSE (0000ms, 0847ms total)
T4DA8 001:653 JLINK_IsHalted()  returns FALSE (0000ms, 0847ms total)
T4DA8 001:662 JLINK_IsHalted() -- CPU_ReadMem(2 bytes @ 0x20000000)  returns TRUE (0003ms, 0850ms total)
T4DA8 001:665 JLINK_ReadReg(R15 (PC))  returns 0x20000000 (0000ms, 0847ms total)
T4DA8 001:665 JLINK_ClrBPEx(BPHandle = 0x0000000F)  returns 0x00 (0000ms, 0847ms total)
T4DA8 001:665 JLINK_ReadReg(R0)  returns 0x00000000 (0000ms, 0847ms total)
T4DA8 001:665 JLINK_WriteMem(0x20000164, 0x0400 Bytes, ...) - Data: 80 40 05 F0 2D BF 94 F8 21 00 02 28 08 D0 38 B1 ... -- CPU_WriteMem(1024 bytes @ 0x20000164)  returns 0x400 (0007ms, 0854ms total)
T4DA8 001:672 JLINK_WriteReg(R0, 0x08002000)  returns 0x00 (0000ms, 0854ms total)
T4DA8 001:672 JLINK_WriteReg(R1, 0x00000400)  returns 0x00 (0000ms, 0854ms total)
T4DA8 001:672 JLINK_WriteReg(R2, 0x20000164)  returns 0x00 (0000ms, 0854ms total)
T4DA8 001:672 JLINK_WriteReg(R3, 0x00000000)  returns 0x00 (0000ms, 0854ms total)
T4DA8 001:672 JLINK_WriteReg(R4, 0x00000000)  returns 0x00 (0000ms, 0854ms total)
T4DA8 001:672 JLINK_WriteReg(R5, 0x00000000)  returns 0x00 (0000ms, 0854ms total)
T4DA8 001:672 JLINK_WriteReg(R6, 0x00000000)  returns 0x00 (0000ms, 0854ms total)
T4DA8 001:672 JLINK_WriteReg(R7, 0x00000000)  returns 0x00 (0000ms, 0854ms total)
T4DA8 001:672 JLINK_WriteReg(R8, 0x00000000)  returns 0x00 (0000ms, 0854ms total)
T4DA8 001:672 JLINK_WriteReg(R9, 0x20000160)  returns 0x00 (0000ms, 0854ms total)
